# HZ S RI R 50
10000000 0.2571108937263489 -0.9937942028045654
29900000 -0.6030716896057129 0.6120917201042175
49800000 0.9279214143753052 -0.18504084646701813
69700000 -0.7533499002456665 -0.33377549052238464
89600000 0.5309068560600281 0.7252815365791321
109500000 0.004096850752830505 -0.8605415225028992
129400000 -0.4391650855541229 0.7039307355880737
149300000 0.7964149713516235 -0.3726142942905426
169200000 -0.7697880864143372 -0.15505041182041168
189100000 0.6704474091529846 0.5541911125183105
209000000 -0.15922340750694275 -0.7904901504516602
228900000 -0.23912134766578674 0.7802208065986633
248800000 0.6716068983078003 -0.5104817152023315
268700000 -0.7743467092514038 0.031159603968262672
288600000 0.7599645256996155 0.3554557263851166
308500000 -0.3123413324356079 -0.7288392186164856
328400000 -0.016855280846357346 0.7915047407150269
348300000 0.5229469537734985 -0.6319707632064819
368200000 -0.7207397818565369 0.23076693713665009
388100000 0.7974130511283875 0.1433458924293518
408000000 -0.4642895758152008 -0.6254493594169617
427900000 0.17808285355567932 0.7366194128990173
447800000 0.349004328250885 -0.7223183512687683
467700000 -0.6084887385368347 0.3983462154865265
487600000 0.7872880697250366 -0.023656170815229416
507500000 -0.5736711621284485 -0.4827934801578522
527400000 0.3688512444496155 0.6217142343521118
547300000 0.17065194249153137 -0.770005464553833
567200000 -0.4653477072715759 0.4998227059841156
587100000 0.7363120913505554 -0.21979057788848877
607000000 -0.6426096558570862 -0.3189893662929535
626900000 0.46407654881477356 0.5116126537322998
646800000 0.0005598729476332664 -0.7628813982009888
666700000 -0.30103054642677307 0.5588890910148621
686600000 0.6335286498069763 -0.3987748622894287
706500000 -0.6557241082191467 -0.1138351783156395
726400000 0.5681406259536743 0.3577501177787781
746300000 -0.1778307557106018 -0.7022238969802856
766200000 -0.15544940531253815 0.5744487643241882
786100000 0.5278624296188354 -0.5019777417182922
806000000 -0.6098358035087585 0.00724167563021183
825900000 0.6135453581809998 0.23072364926338196
845800000 -0.2756125330924988 -0.6200761198997498
865700000 0.010730546899139881 0.5552720427513123
885600000 0.40126270055770874 -0.5929276943206787
905500000 -0.5800793170928955 0.017441298812627792
925400000 0.6208855509757996 0.04832146316766739
945300000 -0.38465651869773865 -0.510841965675354
965200000 0.09432884305715561 0.5247215032577515
985100000 0.1740681231021881 -0.6373183727264404
1005000000 -0.504652202129364 0.21186065673828125
1024900000 0.6157748699188232 -0.09218810498714447
1044800000 -0.4313729405403137 -0.4274328649044037
1064700000 0.22492310404777527 0.48090100288391113
1084600000 0.09493700414896011 -0.6433440446853638
1104500000 -0.46256688237190247 0.26055392622947693
1124400000 0.5596188306808472 -0.2437085062265396
1144300000 -0.49324244260787964 -0.3470834493637085
1164200000 0.32895004749298096 0.40024179220199585
1184100000 -0.02371126413345337 -0.6446571946144104
1204000000 -0.39184707403182983 0.3413742184638977
1223900000 0.4658934772014618 -0.3781225085258484
1243800000 -0.5579816102981567 -0.24580629169940948
1263700000 0.40321284532546997 0.2887834310531616
1283600000 -0.20199713110923767 -0.6069770455360413
1303500000 -0.288360059261322 0.43180954456329346
1323400000 0.37138307094573975 -0.4566882848739624
1343300000 -0.5903123617172241 -0.08937656879425049
1363200000 0.4736197292804718 0.15437892079353333
1383100000 -0.304165244102478 -0.5670814514160156
1403000000 -0.18026690185070038 0.46422603726387024
1422900000 0.24639767408370972 -0.5334051847457886
1442800000 -0.58859783411026 0.038864172995090485
1462700000 0.4808274805545807 0.06101563945412636
1482600000 -0.4163985252380371 -0.4818567633628845
1502500000 -0.06306713819503784 0.4790143668651581
1522400000 0.1457294374704361 -0.5652775168418884
1542300000 -0.546525239944458 0.16759873926639557
1562200000 0.47399312257766724 -0.06272739171981812
1582100000 -0.5153735876083374 -0.3475554287433624
1602000000 0.1161639392375946 0.43713051080703735
1621900000 -0.03364386409521103 -0.5964519381523132
1641800000 -0.4671706557273865 0.2866678535938263
1661700000 0.4450404644012451 -0.1807178258895874
1681600000 -0.5631083846092224 -0.2386472225189209
1701500000 0.19772428274154663 0.3739407956600189
1721400000 -0.18013118207454681 -0.5703877210617065
1741300000 -0.4118673801422119 0.3435651361942291
1761200000 0.3591221868991852 -0.2652107775211334
1781100000 -0.5762578248977661 -0.04000149294734001
1801000000 0.27122247219085693 0.3412686884403229
1820900000 -0.26558512449264526 -0.48829537630081177
1840800000 -0.25474897027015686 0.41935670375823975
1860700000 0.3007740378379822 -0.3514559864997864
1880600000 -0.5211795568466187 0.07656865566968918
1900500000 0.3692742884159088 0.2055569291114807
1920400000 -0.3451622724533081 -0.4229567348957062
1940300000 -0.1598425805568695 0.430191308259964
1960200000 0.1917809545993805 -0.42813611030578613
1980100000 -0.5087525248527527 0.11805570870637894
2000000000 0.3704017996788025 0.15374013781547546
